! Created with skrf 1.8.0 (http://scikit-rf.org).
# Hz S RI R 50.0 
!freq ReS11 ImS11
1000000000.0 0.23359776534181587 -0.07590051495554855
1009000000.0 0.23296251808523075 -0.07642300751499181
1018000000.0 0.23232694112568833 -0.07694276546220637
1027000000.0 0.23169104277545438 -0.07745979279544245
1036000000.0 0.2310548313205284 -0.07797409352920405
1045000000.0 0.2304183150206451 -0.07848567169414554
1054000000.0 0.22978150210927617 -0.07899453133696832
1063000000.0 0.22914440079363246 -0.07950067652031786
1072000000.0 0.22850701925466602 -0.08000411132268077
1081000000.0 0.22786936564707302 -0.08050483983828224
1090000000.0 0.22723144809929646 -0.08100286617698348
1099000000.0 0.22659327471352952 -0.08149819446417948
1108000000.0 0.2259548535657189 -0.08199082884069694
1117000000.0 0.2253161927055684 -0.08248077346269231
1126000000.0 0.22467730015654352 -0.08296803250155019
1135000000.0 0.22403818391587516 -0.08345261014378175
1144000000.0 0.22339885195456455 -0.0839345105909235
1153000000.0 0.222759312217388 -0.08441373805943612
1162000000.0 0.22211957262290213 -0.08489029678060353
1171000000.0 0.22147964106344925 -0.08536419100043226
1180000000.0 0.22083952540516288 -0.08583542497955078
1189000000.0 0.22019923348797413 -0.08630400299310942
1198000000.0 0.21955877312561756 -0.08676992933067994
1207000000.0 0.21891815210563786 -0.08723320829615583
1216000000.0 0.21827737818939655 -0.08769384420765247
1225000000.0 0.21763645911207918 -0.0881518413974077
1234000000.0 0.21699540258270253 -0.08860720421168235
1243000000.0 0.21635421628412213 -0.08905993701066117
1252000000.0 0.21571290787304032 -0.08951004416835397
1261000000.0 0.2150714849800143 -0.08995753007249682
1270000000.0 0.21442995520946428 -0.09040239912445344
1279000000.0 0.2137883261396825 -0.09084465573911706
1288000000.0 0.21314660532284188 -0.09128430434481216
1297000000.0 0.21250480028500524 -0.09172134938319652
1306000000.0 0.21186291852613484 -0.0921557953091636
1315000000.0 0.21122096752010186 -0.09258764659074498
1324000000.0 0.21057895471469662 -0.09301690770901296
1333000000.0 0.20993688753163844 -0.09344358315798361
1342000000.0 0.20929477336658645 -0.09386767744451968
1351000000.0 0.20865261958915007 -0.09428919508823409
1360000000.0 0.2080104335429 -0.09470814062139318
1369000000.0 0.2073682225453796 -0.09512451858882068
1378000000.0 0.20672599388811608 -0.0955383335478014
1387000000.0 0.20608375483663258 -0.09594959006798555
1396000000.0 0.20544151263045973 -0.09635829273129276
1405000000.0 0.20479927448314827 -0.09676444613181698
1414000000.0 0.20415704758228123 -0.09716805487573098
1423000000.0 0.20351483908948673 -0.09756912358119123
1432000000.0 0.20287265614045105 -0.09796765687824328
1441000000.0 0.2022305058449316 -0.0983636594087269
1450000000.0 0.20158839528677058 -0.09875713582618184
1459000000.0 0.20094633152390853 -0.09914809079575333
1468000000.0 0.20030432158839842 -0.09953652899409837
1477000000.0 0.1996623724864196 -0.0999224551092917
1486000000.0 0.19902049119829232 -0.10030587384073222
1495000000.0 0.19837868467849248 -0.10068678989904974
1504000000.0 0.19773695985566636 -0.10106520800601163
1513000000.0 0.19709532363264579 -0.10144113289442995
1522000000.0 0.19645378288646342 -0.10181456930806858
1531000000.0 0.19581234446836862 -0.10218552200155082
1540000000.0 0.19517101520384286 -0.10255399574026693
1549000000.0 0.1945298018926161 -0.10291999530028202
1558000000.0 0.1938887113086829 -0.10328352546824413
1567000000.0 0.19324775020031912 -0.10364459104129257
1576000000.0 0.19260692529009832 -0.10400319682696638
1585000000.0 0.1919662432749092 -0.10435934764311303
1594000000.0 0.19132571082597238 -0.10471304831779736
1603000000.0 0.19068533458885809 -0.1050643036892108
1612000000.0 0.19004512118350372 -0.10541311860558056
1621000000.0 0.1894050772042317 -0.10575949792507937
1630000000.0 0.18876520921976758 -0.10610344651573514
1639000000.0 0.1881255237732584 -0.106444969255341
1648000000.0 0.18748602738229123 -0.10678407103136554
1657000000.0 0.18684672653891188 -0.10712075674086316
1666000000.0 0.18620762770964386 -0.10745503129038472
1675000000.0 0.18556873733550777 -0.10778689959588851
1684000000.0 0.18493006183204042 -0.10811636658265109
1693000000.0 0.18429160758931468 -0.10844343718517882
1702000000.0 0.18365338097195932 -0.10876811634711916
1711000000.0 0.18301538831917888 -0.10909040902117248
1720000000.0 0.1823776359447742 -0.10941032016900404
1729000000.0 0.18174013013716261 -0.1097278547611559
1738000000.0 0.18110287715939902 -0.1100430177769596
1747000000.0 0.18046588324919646 -0.11035581420444854
1756000000.0 0.17982915461894733 -0.11066624904027071
1765000000.0 0.17919269745574476 -0.11097432728960194
1774000000.0 0.17855651792140415 -0.1112800539660589
1783000000.0 0.17792062215248483 -0.1115834340916127
1792000000.0 0.177285016260312 -0.11188447269650233
1801000000.0 0.17664970633099897 -0.11218317481914887
1810000000.0 0.1760146984254695 -0.11247954550606934
1819000000.0 0.17537999857948017 -0.11277358981179109
1828000000.0 0.17474561280364337 -0.11306531279876625
1837000000.0 0.17411154708345014 -0.11335471953728661
1846000000.0 0.17347780737929336 -0.1136418151053986
1855000000.0 0.1728443996264909 -0.11392660458881831
1864000000.0 0.1722113297353096 -0.114209093080847
1873000000.0 0.17157860359098862 -0.11448928568228678
1882000000.0 0.17094622705376347 -0.1147671875013564
1891000000.0 0.17031420595889024 -0.11504280365360725
1900000000.0 0.1696825461166699 -0.11531613926183973
1909000000.0 0.16905125331247275 -0.11558719945601972
1918000000.0 0.16842033330676323 -0.11585598937319537
1927000000.0 0.16778979183512466 -0.11612251415741391
1936000000.0 0.16715963460828448 -0.11638677895963885
1945000000.0 0.16652986731213962 -0.11664878893766749
1954000000.0 0.1659004956077816 -0.11690854925604839
1963000000.0 0.1652715251315226 -0.11716606508599924
1972000000.0 0.16464296149492105 -0.11742134160532484
1981000000.0 0.16401481028480766 -0.11767438399833545
1990000000.0 0.1633870770633118 -0.11792519745576525
1999000000.0 0.16275976736788766 -0.11817378717469111
2008000000.0 0.16213288671134107 -0.11842015835845128
2017000000.0 0.16150644058185604 -0.11866431621656483
2026000000.0 0.16088043444302177 -0.1189062659646509
2035000000.0 0.16025487373385983 -0.11914601282434817
2044000000.0 0.15962976386885133 -0.11938356202323488
2053000000.0 0.15900511023796446 -0.11961891879474873
2062000000.0 0.15838091820668218 -0.11985208837810724
2071000000.0 0.1577571931160299 -0.12008307601822801
2080000000.0 0.15713394028260358 -0.12031188696564973
2089000000.0 0.15651116499859788 -0.12053852647645284
2098000000.0 0.15588887253183453 -0.12076299981218083
2107000000.0 0.15526706812579072 -0.12098531223976149
2116000000.0 0.15464575699962796 -0.12120546903142858
2125000000.0 0.15402494434822073 -0.12142347546464362
2134000000.0 0.15340463534218565 -0.12163933682201788
2143000000.0 0.15278483512791066 -0.12185305839123478
2152000000.0 0.15216554882758423 -0.12206464546497209
2161000000.0 0.15154678153922513 -0.12227410334082488
2170000000.0 0.15092853833671183 -0.12248143732122836
2179000000.0 0.15031082426981254 -0.12268665271338101
2188000000.0 0.14969364436421523 -0.12288975482916795
2197000000.0 0.14907700362155765 -0.12309074898508451
2206000000.0 0.14846090701945786 -0.12328964050216017
2215000000.0 0.14784535951154448 -0.12348643470588239
2224000000.0 0.14723036602748762 -0.12368113692612095
2233000000.0 0.1466159314730295 -0.12387375249705261
2242000000.0 0.1460020607300156 -0.12406428675708553
2251000000.0 0.14538875865642548 -0.12425274504878438
2260000000.0 0.1447760300864044 -0.12443913271879535
2269000000.0 0.14416387983029463 -0.12462345511777179
2278000000.0 0.1435523126746669 -0.12480571760029945
2287000000.0 0.14294133338235235 -0.12498592552482264
2296000000.0 0.14233094669247448 -0.12516408425357
2305000000.0 0.14172115732048088 -0.12534019915248096
2314000000.0 0.14111196995817568 -0.12551427559113207
2323000000.0 0.14050338927375186 -0.12568631894266394
2332000000.0 0.1398954199118238 -0.12585633458370787
2341000000.0 0.13928806649345968 -0.1260243278943133
2350000000.0 0.13868133361621462 -0.12619030425787503
2359000000.0 0.13807522585416335 -0.1263542690610609
2368000000.0 0.13746974775793344 -0.12651622769373952
2377000000.0 0.13686490385473843 -0.1266761855489085
2386000000.0 0.13626069864841123 -0.12683414802262252
2395000000.0 0.13565713661943765 -0.126990120513922
2404000000.0 0.1350542222249901 -0.1271441084247618
2413000000.0 0.13445195989896136 -0.12729611715994002
2422000000.0 0.13385035405199833 -0.12744615212702737
2431000000.0 0.13324940907153637 -0.12759421873629645
2440000000.0 0.1326491293218335 -0.12774032240065147
2449000000.0 0.1320495191440044 -0.12788446853555777
2458000000.0 0.13145058285605532 -0.1280266625589725
2467000000.0 0.13085232475291847 -0.12816690989127427
2476000000.0 0.13025474910648682 -0.12830521595519406
2485000000.0 0.129657860165649 -0.12844158617574575
2494000000.0 0.1290616621563243 -0.12857602598015727
2503000000.0 0.12846615928149777 -0.12870854079780156
2512000000.0 0.1278713557212557 -0.12883913606012817
2521000000.0 0.1272772556328207 -0.12896781720059478
2530000000.0 0.1266838631505876 -0.12909458965459902
2539000000.0 0.12609118238615885 -0.12921945885941077
2548000000.0 0.1254992174283805 -0.12934243025410408
2557000000.0 0.12490797234337793 -0.12946350927949013
2566000000.0 0.12431745117459211 -0.12958270137804948
2575000000.0 0.1237276579428156 -0.12970001199386558
2584000000.0 0.123138596646229 -0.1298154465725575
2593000000.0 0.12255027126043723 -0.1299290105612136
2602000000.0 0.12196268573850606 -0.13004070940832504
2611000000.0 0.12137584401099903 -0.13015054856371983
2620000000.0 0.12078974998601394 -0.13025853347849656
2629000000.0 0.12020440754921982 -0.13036466960495913
2638000000.0 0.11961982056389414 -0.13046896239655095
2647000000.0 0.1190359928709597 -0.1305714173077898
2656000000.0 0.11845292828902206 -0.1306720397942028
2665000000.0 0.11787063061440682 -0.13077083531226166
2674000000.0 0.11728910362119717 -0.13086780931931807
2683000000.0 0.11670835106127146 -0.13096296727353918
2692000000.0 0.11612837666434093 -0.13105631463384373
2701000000.0 0.11554918413798763 -0.1311478568598379
2710000000.0 0.11497077716770217 -0.13123759941175178
2719000000.0 0.11439315941692188 -0.13132554775037578
2728000000.0 0.11381633452706907 -0.1314117073369974
2737000000.0 0.1132403061175892 -0.13149608363333823
2746000000.0 0.11266507778598922 -0.1315786821014913
2755000000.0 0.11209065310787618 -0.13165950820385808
2764000000.0 0.1115170356369958 -0.1317385674030865
2773000000.0 0.11094422890527107 -0.13181586516200863
2782000000.0 0.11037223642284126 -0.1318914069435788
2791000000.0 0.10980106167810068 -0.13196519821081196
2800000000.0 0.10923070813773769 -0.13203724442672196
2809000000.0 0.10866117924677396 -0.13210755105426067
2818000000.0 0.10809247842860356 -0.13217612355625655
2827000000.0 0.10752460908503239 -0.13224296739535418
2836000000.0 0.1069575745963176 -0.13230808803395339
2845000000.0 0.10639137832120701 -0.13237149093414904
2854000000.0 0.10582602359697883 -0.1324331815576707
2863000000.0 0.10526151373948141 -0.132493165365823
2872000000.0 0.104697852043173 -0.13255144781942566
2881000000.0 0.1041350417811617 -0.13260803437875404
2890000000.0 0.10357308620524551 -0.13266293050348
2899000000.0 0.1030119885459523 -0.13271614165261256
2908000000.0 0.10245175201258029 -0.13276767328443942
2917000000.0 0.10189237979323806 -0.13281753085646808
2926000000.0 0.10133387505488509 -0.1328657198253676
2935000000.0 0.10077624094337227 -0.1329122456469103
2944000000.0 0.10021948058348232 -0.1329571137759138
2953000000.0 0.09966359707897071 -0.1330003296661834
2962000000.0 0.09910859351260616 -0.13304189877045444
2971000000.0 0.09855447294621168 -0.13308182654033515
2980000000.0 0.09800123842070535 -0.13312011842624932
2989000000.0 0.09744889295614147 -0.13315677987737967
2998000000.0 0.09689743955175156 -0.13319181634161106
3007000000.0 0.09634688118598563 -0.13322523326547414
3016000000.0 0.0957972208165534 -0.13325703609408907
3025000000.0 0.09524846138046575 -0.13328723027110956
3034000000.0 0.09470060579407606 -0.13331582123866711
3043000000.0 0.09415365695312185 -0.1333428144373155
3052000000.0 0.09360761773276621 -0.1333682153059752
3061000000.0 0.09306249098763972 -0.1333920292818786
3070000000.0 0.09251827955188209 -0.1334142618005149
3079000000.0 0.091974986239184 -0.13343491829557544
3088000000.0 0.09143261384282904 -0.13345400419889916
3097000000.0 0.09089116513573592 -0.13347152494041858
3106000000.0 0.0903506428705001 -0.13348748594810542
3115000000.0 0.08981104977943646 -0.13350189264791706
3124000000.0 0.08927238857462122 -0.13351475046374287
3133000000.0 0.08873466194793435 -0.13352606481735063
3142000000.0 0.08819787257110201 -0.13353584112833367
3151000000.0 0.08766202309573884 -0.1335440848140576
3160000000.0 0.08712711615339072 -0.1335508012896077
3169000000.0 0.08659315435557727 -0.13355599596773646
3178000000.0 0.08606014029383448 -0.1335596742588112
3187000000.0 0.08552807653975747 -0.1335618415707619
3196000000.0 0.0849969656450435 -0.13356250330902938
3205000000.0 0.08446681014153451 -0.13356166487651364
3214000000.0 0.08393761254126042 -0.13355933167352235
3223000000.0 0.08340937533648196 -0.13355550909771974
3232000000.0 0.08288210099973382 -0.13355020254407526
3241000000.0 0.08235579198386782 -0.13354341740481318
3250000000.0 0.08183045072209606 -0.13353515906936173
3259000000.0 0.0813060796280343 -0.13352543292430263
3268000000.0 0.08078268109574527 -0.13351424435332115
3277000000.0 0.0802602574997821 -0.13350159873715597
3286000000.0 0.0797388111952318 -0.13348750145354962
3295000000.0 0.07921834451775878 -0.13347195787719865
3304000000.0 0.07869885978364849 -0.13345497337970452
3313000000.0 0.07818035928985104 -0.13343655332952445
3322000000.0 0.07766284531402495 -0.13341670309192252
3331000000.0 0.07714632011458096 -0.13339542802892088
3340000000.0 0.07663078593072581 -0.13337273349925136
3349000000.0 0.07611624498250617 -0.13334862485830717
3358000000.0 0.0756026994708526 -0.133323107458095
3367000000.0 0.07509015157762357 -0.13329618664718676
3376000000.0 0.0745786034656495 -0.1332678677706724
3385000000.0 0.07406805727877691 -0.13323815617011225
3394000000.0 0.0735585151419126 -0.1332070571834898
3403000000.0 0.07304997916106785 -0.13317457614516479
3412000000.0 0.0725424514234027 -0.13314071838582628
3421000000.0 0.07203593399727035 -0.13310548923244622
3430000000.0 0.07153042893226154 -0.1330688940082329
3439000000.0 0.0710259382592489 -0.133030938032585
3448000000.0 0.0705224639904315 -0.13299162662104527
3457000000.0 0.07002000811937938 -0.13295096508525522
3466000000.0 0.06951857262107818 -0.1329089587329093
3475000000.0 0.06901815945197377 -0.13286561286770956
3484000000.0 0.06851877055001679 -0.1328209327893205
3493000000.0 0.06802040783470757 -0.13277492379332445
3502000000.0 0.06752307320714084 -0.13272759117117647
3511000000.0 0.06702676855005052 -0.13267894021016
3520000000.0 0.06653149572785459 -0.1326289761933426
3529000000.0 0.06603725658670005 -0.13257770439953181
3538000000.0 0.06554405295450781 -0.13252513010323125
3547000000.0 0.06505188664101777 -0.13247125857459696
3556000000.0 0.06456075943783374 -0.13241609507939395
3565000000.0 0.06407067311846862 -0.13235964487895283
3574000000.0 0.06358162943838956 -0.13230191323012674
3583000000.0 0.06309363013506297 -0.1322429053852488
3592000000.0 0.06260667692799979 -0.13218262659208893
3601000000.0 0.0621207715188009 -0.13212108209381188
3610000000.0 0.06163591559120199 -0.13205827712893461
3619000000.0 0.061152110811119376 -0.1319942169312845
3628000000.0 0.06066935882669499 -0.13192890672995747
3637000000.0 0.0601876612683419 -0.13186235174927619
3646000000.0 0.05970701974878972 -0.13179455720874886
3655000000.0 0.059227435863130104 -0.1317255283230277
3664000000.0 0.05874891118886222 -0.13165527030186827
3673000000.0 0.05827144728593823 -0.1315837883500884
3682000000.0 0.0577950456968089 -0.13151108766752764
3691000000.0 0.05731970794646918 -0.13143717344900674
3700000000.0 0.05684543554250394 -0.13136205088428762
3709000000.0 0.05637222997513332 -0.13128572515803327
3718000000.0 0.05590009271725881 -0.1312082014497678
3727000000.0 0.05542902522450879 -0.13112948493383697
3736000000.0 0.054959028935284045 -0.13104958077936882
3745000000.0 0.05449010527080406 -0.13096849415023423
3754000000.0 0.05402225563515226 -0.13088623020500814
3763000000.0 0.053555481415322334 -0.1308027940969306
3772000000.0 0.053089783981263766 -0.1307181909738682
3781000000.0 0.0526251646859278 -0.1306324259782756
3790000000.0 0.05216162486531348 -0.13054550424715736
3799000000.0 0.051699165838513396 -0.13045743091202994
3808000000.0 0.0512377889077598 -0.13036821109888377
3817000000.0 0.05077749535847047 -0.13027784992814573
3826000000.0 0.05031828645929479 -0.1301863525146417
3835000000.0 0.04986016346215977 -0.1300937239675593
3844000000.0 0.04940312760231615 -0.1299999693904108
3853000000.0 0.04894718009838429 -0.12990509388099652
3862000000.0 0.0484923221524005 -0.1298091025313678
3871000000.0 0.048038554949863074 -0.1297120004277909
3880000000.0 0.04758587965977825 -0.12961379265071069
3889000000.0 0.047134297434706714 -0.12951448427471438
3898000000.0 0.046683809410809365 -0.12941408036849594
3907000000.0 0.04623441670789391 -0.12931258599482023
3916000000.0 0.04578612042946075 -0.12921000621048764
3925000000.0 0.04533892166274936 -0.1291063460662988
3934000000.0 0.044892821478784595 -0.12900161060701953
3943000000.0 0.044447820932422756 -0.12889580487134583
3952000000.0 0.04400392106239795 -0.12878893389186924
3961000000.0 0.04356112289136847 -0.12868100269504248
3970000000.0 0.043119427425962996 -0.12857201630114504
3979000000.0 0.04267883565682685 -0.12846197972424891
3988000000.0 0.04223934855866854 -0.12835089797218494
3997000000.0 0.04180096709030586 -0.1282387760465089
4006000000.0 0.041363692194712365 -0.1281256189424681
4015000000.0 0.04092752479906378 -0.12801143164896783
4024000000.0 0.040492465814784134 -0.12789621914853846
4033000000.0 0.04005851613759256 -0.1277799864173023
4042000000.0 0.03962567664754916 -0.1276627384249408
4051000000.0 0.0391939482091019 -0.1275444801346621
4060000000.0 0.0387633316711328 -0.1274252165031686
4069000000.0 0.03833382786700417 -0.12730495248062468
4078000000.0 0.03790543761460543 -0.12718369301062468
4087000000.0 0.037478161716399214 -0.1270614430301612
4096000000.0 0.03705200095946796 -0.12693820746959333
4105000000.0 0.03662695611556031 -0.12681399125261525
4114000000.0 0.03620302794113753 -0.1266887992962249
4123000000.0 0.03578021717742012 -0.12656263651069305
4132000000.0 0.03535852455043403 -0.12643550779953233
4141000000.0 0.03493795077105726 -0.1263074180594664
4150000000.0 0.034518496535066306 -0.12617837218039968
4159000000.0 0.03410016252318271 -0.1260483750453868
4168000000.0 0.03368294940111924 -0.12591743153060253
4177000000.0 0.033266857819626766 -0.12578554650531196
4186000000.0 0.03285188841454039 -0.12565272483184048
4195000000.0 0.03243804180682606 -0.12551897136554435
4204000000.0 0.032025318602627126 -0.12538429095478126
4213000000.0 0.03161371939331051 -0.12524868844088116
4222000000.0 0.03120324475551359 -0.12511216865811703
4231000000.0 0.03079389525119024 -0.12497473643367633
4240000000.0 0.030385671427657666 -0.12483639658763203
4249000000.0 0.029978573817642597 -0.12469715393291435
4258000000.0 0.029572602939327848 -0.1245570132752823
4267000000.0 0.02916775929639884 -0.12441597941329567
4276000000.0 0.0287640433780899 -0.124274057138287
4285000000.0 0.028361455659230813 -0.12413125123433391
4294000000.0 0.027959996600293177 -0.12398756647823139
4303000000.0 0.027559666647437024 -0.12384300763946454
4312000000.0 0.027160466232556902 -0.12369757948018133
4321000000.0 0.0267623957733287 -0.12355128675516544
4330000000.0 0.02636545567325575 -0.12340413421180957
