! Created with skrf 1.8.0 (http://scikit-rf.org).
# Hz S RI R 50.0 
!freq ReS11 ImS11 ReS21 ImS21 ReS12 ImS12 ReS22 ImS22
1000000000.0 0.23359776534181587 -0.07590051495554855 0.6973055210353025 -0.11044234468438555 0.6973055210353025 -0.11044234468438555 0.19753766811902757 -0.03128689300804618
1009000000.0 0.23296251808523075 -0.07642300751499181 0.6963648388080523 -0.1113027404041307 0.6963648388080523 -0.1113027404041307 0.19749323993195403 -0.03156612394925359
1018000000.0 0.23232694112568833 -0.07694276546220637 0.6954240002044628 -0.11216083950165495 0.6954240002044628 -0.11216083950165495 0.19744841703596586 -0.031845291802577454
1027000000.0 0.23169104277545438 -0.07745979279544245 0.694483008643636 -0.11301664434067478 0.694483008643636 -0.11301664434067478 0.19740319952064586 -0.03212439601007441
1036000000.0 0.2310548313205284 -0.07797409352920405 0.6935418675374885 -0.11387015728707475 0.6935418675374885 -0.11387015728707475 0.1973575874763655 -0.03240343601392831
1045000000.0 0.2304183150206451 -0.07848567169414554 0.6926005802907559 -0.11472138070889504 0.6926005802907559 -0.11472138070889504 0.19731158099428475 -0.03268241125645132
1054000000.0 0.22978150210927617 -0.07899453133696832 0.6916591503009987 -0.11557031697631884 0.6916591503009987 -0.11557031697631884 0.19726518016635192 -0.032961321180085046
1063000000.0 0.22914440079363246 -0.07950067652031786 0.6907175809586068 -0.11641696846165978 0.6907175809586068 -0.11641696846165978 0.19721838508530345 -0.03324016522740162
1072000000.0 0.22850701925466602 -0.08000411132268077 0.6897758756468043 -0.1172613375393494 0.6897758756468043 -0.1172613375393494 0.19717119584466375 -0.03351894284110485
1081000000.0 0.22786936564707302 -0.08050483983828224 0.6888340377416559 -0.11810342658592479 0.6888340377416559 -0.11810342658592479 0.197123612538745 -0.03379765346403132
1090000000.0 0.22723144809929646 -0.08100286617698348 0.6878920706120697 -0.11894323798001592 0.6878920706120697 -0.11894323798001592 0.19707563526264685 -0.034076296539151486
1099000000.0 0.22659327471352952 -0.08149819446417948 0.6869499776198047 -0.11978077410233322 0.6869499776198047 -0.11978077410233322 0.19702726411225652 -0.034354871509570825
1108000000.0 0.2259548535657189 -0.08199082884069694 0.6860077621194742 -0.12061603733565525 0.6860077621194742 -0.12061603733565525 0.19697849918424826 -0.0346333778185309
1117000000.0 0.2253161927055684 -0.08248077346269231 0.6850654274585519 -0.12144903006481621 0.6850654274585519 -0.12144903006481621 0.19692934057608344 -0.03491181490941055
1126000000.0 0.22467730015654352 -0.08296803250155019 0.6841229769773766 -0.12227975467669346 0.6841229769773766 -0.12227975467669346 0.19687978838601017 -0.03519018222572689
1135000000.0 0.22403818391587516 -0.08345261014378175 0.6831804140091573 -0.12310821356019534 0.6831804140091573 -0.12310821356019534 0.19682984271306314 -0.03546847921113652
1144000000.0 0.22339885195456455 -0.0839345105909235 0.6822377418799785 -0.12393440910624866 0.6822377418799785 -0.12393440910624866 0.1967795036570636 -0.03574670530943661
1153000000.0 0.222759312217388 -0.08441373805943612 0.6812949639088053 -0.1247583437077864 0.6812949639088053 -0.1247583437077864 0.1967287713186188 -0.036024859964565996
1162000000.0 0.22211957262290213 -0.08489029678060353 0.680352083407489 -0.12558001975973543 0.680352083407489 -0.12558001975973543 0.1966776457991222 -0.036302942620606286
1171000000.0 0.22147964106344925 -0.08536419100043226 0.6794091036807716 -0.12639943965900424 0.6794091036807716 -0.12639943965900424 0.19662612720075295 -0.036580952721782994
1180000000.0 0.22083952540516288 -0.08583542497955078 0.6784660280262911 -0.12721660580447058 0.6784660280262911 -0.12721660580447058 0.19657421562647584 -0.03685888971246666
1189000000.0 0.22019923348797413 -0.08630400299310942 0.6775228597345874 -0.1280315205969693 0.6775228597345874 -0.1280315205969693 0.1965219111800411 -0.037136753037173925
1198000000.0 0.21955877312561756 -0.08676992933067994 0.6765796020891068 -0.12884418643928008 0.6765796020891068 -0.12884418643928008 0.19646921396598405 -0.03741454214056865
1207000000.0 0.21891815210563786 -0.08723320829615583 0.6756362583662076 -0.12965460573611523 0.6756362583662076 -0.12965460573611523 0.19641612408962505 -0.03769225646746305
1216000000.0 0.21827737818939655 -0.08769384420765247 0.6746928318351652 -0.13046278089410757 0.6746928318351652 -0.13046278089410757 0.19636264165706932 -0.03796989546281879
1225000000.0 0.21763645911207918 -0.0881518413974077 0.6737493257581773 -0.13126871432179812 0.6737493257581773 -0.13126871432179812 0.1963087667752065 -0.038247458571748064
1234000000.0 0.21699540258270253 -0.08860720421168235 0.6728057433903694 -0.13207240842962403 0.6728057433903694 -0.13207240842962403 0.19625449955171065 -0.03852494523951476
1243000000.0 0.21635421628412213 -0.08905993701066117 0.6718620879797998 -0.13287386562990672 0.6718620879797998 -0.13287386562990672 0.19619984009503993 -0.03880235491153555
1252000000.0 0.21571290787304032 -0.08951004416835397 0.6709183627674653 -0.13367308833683916 0.6709183627674653 -0.13367308833683916 0.19614478851443645 -0.039079687033380966
1261000000.0 0.2150714849800143 -0.08995753007249682 0.6699745709873061 -0.13447007896647448 0.6699745709873061 -0.13447007896647448 0.196089344919926 -0.03935694105077653
1270000000.0 0.21442995520946428 -0.09040239912445344 0.669030715866211 -0.1352648399367134 0.669030715866211 -0.1352648399367134 0.19603350942231781 -0.039634116409603876
1279000000.0 0.2137883261396825 -0.09084465573911706 0.6680868006240236 -0.13605737366729254 0.6680868006240236 -0.13605737366729254 0.19597728213320448 -0.03991121255590183
1288000000.0 0.21314660532284188 -0.09128430434481216 0.6671428284735464 -0.13684768257977217 0.6671428284735464 -0.13684768257977217 0.19592066316496148 -0.04018822893586757
1297000000.0 0.21250480028500524 -0.09172134938319652 0.6661988026205472 -0.13763576909752434 0.6661988026205472 -0.13763576909752434 0.19586365263074723 -0.040465164995857644
1306000000.0 0.21186291852613484 -0.0921557953091636 0.6652547262637639 -0.13842163564572085 0.6652547262637639 -0.13842163564572085 0.19580625064450266 -0.04074202018238915
1315000000.0 0.21122096752010186 -0.09258764659074498 0.6643106025949099 -0.13920528465132134 0.6643106025949099 -0.13920528465132134 0.19574845732095103 -0.041018793942140835
1324000000.0 0.21057895471469662 -0.09301690770901296 0.6633664347986796 -0.13998671854306124 0.6633664347986796 -0.13998671854306124 0.19569027277559783 -0.04129548572195414
1333000000.0 0.20993688753163844 -0.09344358315798361 0.6624222260527538 -0.14076593975144014 0.6624222260527538 -0.14076593975144014 0.19563169712473033 -0.041572094968834405
1342000000.0 0.20929477336658645 -0.09386767744451968 0.6614779795278053 -0.14154295070870956 0.6614779795278053 -0.14154295070870956 0.19557273048541748 -0.041848621129951885
1351000000.0 0.20865261958915007 -0.09428919508823409 0.6605336983875039 -0.1423177538488614 0.6605336983875039 -0.1423177538488614 0.19551337297550975 -0.0421250636526429
1360000000.0 0.2080104335429 -0.09470814062139318 0.6595893857885217 -0.14309035160761568 0.6595893857885217 -0.14309035160761568 0.1954536247136387 -0.042401421984410936
1369000000.0 0.2073682225453796 -0.09512451858882068 0.6586450448805392 -0.14386074642240917 0.6586450448805392 -0.14386074642240917 0.1953934858192169 -0.042677695572927714
1378000000.0 0.20672599388811608 -0.0955383335478014 0.6577006788062506 -0.14462894073238336 0.6577006788062506 -0.14462894073238336 0.19533295641243759 -0.04295388386603436
1387000000.0 0.20608375483663258 -0.09594959006798555 0.6567562907013687 -0.14539493697837264 0.6567562907013687 -0.14539493697837264 0.1952720366142745 -0.04322998631174246
1396000000.0 0.20544151263045973 -0.09635829273129276 0.6558118836946306 -0.1461587376028926 0.6558118836946306 -0.1461587376028926 0.19521072654648167 -0.04350600235823515
1405000000.0 0.20479927448314827 -0.09676444613181698 0.6548674609078036 -0.14692034505012827 0.6548674609078036 -0.14692034505012827 0.19514902633159303 -0.04378193145386827
1414000000.0 0.20415704758228123 -0.09716805487573098 0.6539230254556901 -0.1476797617659225 0.6539230254556901 -0.1476797617659225 0.19508693609292227 -0.04405777304717144
1423000000.0 0.20351483908948673 -0.09756912358119123 0.6529785804461338 -0.14843699019776407 0.6529785804461338 -0.14843699019776407 0.19502445595456264 -0.044333526586849144
1432000000.0 0.20287265614045105 -0.09796765687824328 0.6520341289800242 -0.1491920327947761 0.6520341289800242 -0.1491920327947761 0.19496158604138658 -0.04460919152178185
1441000000.0 0.2022305058449316 -0.0983636594087269 0.6510896741513033 -0.14994489200770447 0.6510896741513033 -0.14994489200770447 0.1948983264790456 -0.04488476730102713
1450000000.0 0.20158839528677058 -0.09875713582618184 0.6501452190469698 -0.15069557028890615 0.6501452190469698 -0.15069557028890615 0.19483467739396987 -0.04516025337382074
1459000000.0 0.20094633152390853 -0.09914809079575333 0.649200766747086 -0.15144407009233737 0.649200766747086 -0.15144407009233737 0.19477063891336813 -0.045435649189577695
1468000000.0 0.20030432158839842 -0.09953652899409837 0.6482563203247823 -0.15219039387354233 0.6482563203247823 -0.15219039387354233 0.19470621116522732 -0.04571095419789342
1477000000.0 0.1996623724864196 -0.0999224551092917 0.6473118828462636 -0.15293454408964152 0.6473118828462636 -0.15293454408964152 0.1946413942783124 -0.04598616784854484
1486000000.0 0.19902049119829232 -0.10030587384073222 0.646367457370814 -0.1536765231993201 0.646367457370814 -0.1536765231993201 0.19457618838216606 -0.046261289591491436
1495000000.0 0.19837868467849248 -0.10068678989904974 0.6454230469508029 -0.15441633366281632 0.6454230469508029 -0.15441633366281632 0.19451059360710843 -0.04653631887687638
1504000000.0 0.19773695985566636 -0.10106520800601163 0.6444786546316906 -0.15515397794191021 0.6444786546316906 -0.15515397794191021 0.19444461008423686 -0.04681125515502766
1513000000.0 0.19709532363264579 -0.10144113289442995 0.643534283452034 -0.15588945849991204 0.643534283452034 -0.15588945849991204 0.19437823794542566 -0.04708609787645912
1522000000.0 0.19645378288646342 -0.10181456930806858 0.6425899364434915 -0.15662277780165051 0.6425899364434915 -0.15662277780165051 0.19431147732332588 -0.04736084649187158
1531000000.0 0.19581234446836862 -0.10218552200155082 0.6416456166308295 -0.15735393831346184 0.6416456166308295 -0.15735393831346184 0.19424432835136485 -0.04763550045215397
1540000000.0 0.19517101520384286 -0.10255399574026693 0.6407013270319276 -0.15808294250317795 0.6407013270319276 -0.15808294250317795 0.1941767911637462 -0.04791005920838437
1549000000.0 0.1945298018926161 -0.10291999530028202 0.6397570706577843 -0.1588097928401153 0.6397570706577843 -0.1588097928401153 0.1941088658954494 -0.04818452221183114
1558000000.0 0.1938887113086829 -0.10328352546824413 0.6388128505125225 -0.1595344917950631 0.6388128505125225 -0.1595344917950631 0.19404055268222947 -0.04845888891395403
1567000000.0 0.19324775020031912 -0.10364459104129257 0.6378686695933953 -0.1602570418402725 0.6378686695933953 -0.1602570418402725 0.19397185166061684 -0.04873315876640522
1576000000.0 0.19260692529009832 -0.10400319682696638 0.6369245308907919 -0.16097744544944492 0.6369245308907919 -0.16097744544944492 0.19390276296791703 -0.0490073312210305
1585000000.0 0.1919662432749092 -0.10435934764311303 0.6359804373882427 -0.16169570509772063 0.6359804373882427 -0.16169570509772063 0.1938332867422103 -0.04928140572987028
1594000000.0 0.19132571082597238 -0.10471304831779736 0.6350363920624259 -0.16241182326166773 0.6350363920624259 -0.16241182326166773 0.19376342312235142 -0.04955538174516074
1603000000.0 0.19068533458885809 -0.1050643036892108 0.6340923978831718 -0.16312580241927058 0.6340923978831718 -0.16312580241927058 0.19369317224796953 -0.04982925871933491
1612000000.0 0.19004512118350372 -0.10541311860558056 0.6331484578134701 -0.16383764504991882 0.6331484578134701 -0.16383764504991882 0.19362253425946757 -0.05010303610502375
1621000000.0 0.1894050772042317 -0.10575949792507937 0.6322045748094741 -0.16454735363439596 0.6322045748094741 -0.16454735363439596 0.19355150929802226 -0.05037671335505728
1630000000.0 0.18876520921976758 -0.10610344651573514 0.631260751820508 -0.16525493065486807 0.631260751820508 -0.16525493065486807 0.1934800975055837 -0.05065028992246562
1639000000.0 0.1881255237732584 -0.106444969255341 0.6303169917890711 -0.16596037859487284 0.6303169917890711 -0.16596037859487284 0.19340829902487514 -0.05092376526048015
1648000000.0 0.18748602738229123 -0.10678407103136554 0.6293732976508445 -0.16666369993930813 0.6293732976508445 -0.16666369993930813 0.1933361139993926 -0.051197138822534544
1657000000.0 0.18684672653891188 -0.10712075674086316 0.6284296723346968 -0.16736489717442105 0.6284296723346968 -0.16736489717442105 0.1932635425734047 -0.051470410062265874
1666000000.0 0.18620762770964386 -0.10745503129038472 0.6274861187626892 -0.1680639727877966 0.6274861187626892 -0.1680639727877966 0.19319058489195226 -0.05174357843351573
1675000000.0 0.18556873733550777 -0.10778689959588851 0.6265426398500822 -0.16876092926834685 0.6265426398500822 -0.16876092926834685 0.19311724110084813 -0.052016643390331324
1684000000.0 0.18493006183204042 -0.10811636658265109 0.6255992385053407 -0.16945576910629936 0.6255992385053407 -0.16945576910629936 0.19304351134667683 -0.052289604386966476
1693000000.0 0.18429160758931468 -0.10844343718517882 0.62465591763014 -0.17014849479318664 0.62465591763014 -0.17014849479318664 0.1929693957767942 -0.05256246087788285
1702000000.0 0.18365338097195932 -0.10876811634711916 0.6237126801193712 -0.17083910882183465 0.6237126801193712 -0.17083910882183465 0.19289489453932726 -0.05283521231775093
1711000000.0 0.18301538831917888 -0.10909040902117248 0.6227695288611482 -0.17152761368635214 0.6227695288611482 -0.17152761368635214 0.19282000778317376 -0.05310785816145119
1720000000.0 0.1823776359447742 -0.10941032016900404 0.6218264667368122 -0.17221401188211938 0.6218264667368122 -0.17221401188211938 0.19274473565800196 -0.05338039786407511
1729000000.0 0.18174013013716261 -0.1097278547611559 0.6208834966209383 -0.1728983059057773 0.6208834966209383 -0.1728983059057773 0.1926690783142503 -0.05365283088092635
1738000000.0 0.18110287715939902 -0.1100430177769596 0.6199406213813405 -0.17358049825521624 0.6199406213813405 -0.17358049825521624 0.19259303590312718 -0.053925156667521734
1747000000.0 0.18046588324919646 -0.11035581420444854 0.6189978438790791 -0.1742605914295656 0.6189978438790791 -0.1742605914295656 0.19251660857661054 -0.05419737467959247
1756000000.0 0.17982915461894733 -0.11066624904027071 0.6180551669684646 -0.17493858792918218 0.6180551669684646 -0.17493858792918218 0.19243979648744758 -0.054469484373085075
1765000000.0 0.17919269745574476 -0.11097432728960194 0.6171125934970652 -0.1756144902556398 0.6171125934970652 -0.1756144902556398 0.19236259978915457 -0.05474148520416264
1774000000.0 0.17855651792140415 -0.1112800539660589 0.6161701263057117 -0.1762883009117181 0.6161701263057117 -0.1762883009117181 0.19228501863601638 -0.055013376629205725
1783000000.0 0.17792062215248483 -0.1115834340916127 0.6152277682285037 -0.17696002240139197 0.6152277682285037 -0.17696002240139197 0.19220705318308628 -0.05528515810481367
1792000000.0 0.177285016260312 -0.11188447269650233 0.6142855220928155 -0.17762965722982024 0.6142855220928155 -0.17762965722982024 0.1921287035861856 -0.05555682908780545
1801000000.0 0.17664970633099897 -0.11218317481914887 0.6133433907193022 -0.17829720790333548 0.6133433907193022 -0.17829720790333548 0.1920499700019035 -0.05582838903522094
1810000000.0 0.1760146984254695 -0.11247954550606934 0.612401376921905 -0.17896267692943252 0.612401376921905 -0.17896267692943252 0.19197085258759636 -0.056099837404321895
1819000000.0 0.17537999857948017 -0.11277358981179109 0.6114594835078577 -0.17962606681675825 0.6114594835078577 -0.17962606681675825 0.1918913515013879 -0.056371173652593115
1828000000.0 0.17474561280364337 -0.11306531279876625 0.6105177132776924 -0.1802873800751004 0.6105177132776924 -0.1802873800751004 0.1918114669021685 -0.05664239723774342
1837000000.0 0.17411154708345014 -0.11335471953728661 0.6095760690252454 -0.18094661921537697 0.6095760690252454 -0.18094661921537697 0.19173119894959514 -0.056913507617706804
1846000000.0 0.17347780737929336 -0.1136418151053986 0.6086345535376629 -0.1816037867496256 0.6086345535376629 -0.1816037867496256 0.19165054780409088 -0.057184504250643586
1855000000.0 0.1728443996264909 -0.11392660458881831 0.607693169595408 -0.18225888519099284 0.607693169595408 -0.18225888519099284 0.1915695136268447 -0.05745538659494135
1864000000.0 0.1722113297353096 -0.114209093080847 0.6067519199722651 -0.18291191705372326 0.6067519199722651 -0.18291191705372326 0.19148809657981103 -0.057726154109216124
1873000000.0 0.17157860359098862 -0.11448928568228678 0.605810807435347 -0.18356288485314892 0.605810807435347 -0.18356288485314892 0.19140629682570953 -0.057996806252313404
1882000000.0 0.17094622705376347 -0.1147671875013564 0.6048698347451004 -0.18421179110567878 0.6048698347451004 -0.18421179110567878 0.19132411452802478 -0.05826734248330931
1891000000.0 0.17031420595889024 -0.11504280365360725 0.6039290046553121 -0.18485863832878813 0.6039290046553121 -0.18485863832878813 0.19124154985100583 -0.05853776226151161
1900000000.0 0.1696825461166699 -0.11531613926183973 0.6029883199131147 -0.18550342904100767 0.6029883199131147 -0.18550342904100767 0.19115860295966602 -0.0588080650464608
1909000000.0 0.16905125331247275 -0.11558719945601972 0.6020477832589932 -0.18614616576191312 0.6020477832589932 -0.18614616576191312 0.19107527401978258 -0.05907825029793118
1918000000.0 0.16842033330676323 -0.11585598937319537 0.6011073974267901 -0.18678685101211492 0.6011073974267901 -0.18678685101211492 0.19099156319789623 -0.059348317475932014
1927000000.0 0.16778979183512466 -0.11612251415741391 0.6001671651437122 -0.18742548731324726 0.6001671651437122 -0.18742548731324726 0.19090747066131097 -0.059618266040708495
1936000000.0 0.16715963460828448 -0.11638677895963885 0.5992270891303364 -0.18806207718795767 0.5992270891303364 -0.18806207718795767 0.1908229965780937 -0.059888095452742866
1945000000.0 0.16652986731213962 -0.11664878893766749 0.5982871721006152 -0.18869662315989671 0.5982871721006152 -0.18869662315989671 0.19073814111707388 -0.06015780517275557
1954000000.0 0.1659004956077816 -0.11690854925604839 0.597347416761884 -0.18932912775370736 0.597347416761884 -0.18932912775370736 0.19065290444784314 -0.060427394661706206
1963000000.0 0.1652715251315226 -0.11716606508599924 0.5964078258148653 -0.1899595934950145 0.5964078258148653 -0.1899595934950145 0.19056728674075502 -0.06069686338079472
1972000000.0 0.16464296149492105 -0.11742134160532484 0.5954684019536766 -0.19058802291041438 0.5954684019536766 -0.19058802291041438 0.19048128816692464 -0.060966210791462354
1981000000.0 0.16401481028480766 -0.11767438399833545 0.5945291478658353 -0.1912144185274646 0.5945291478658353 -0.1912144185274646 0.19039490889822824 -0.06123543635539285
1990000000.0 0.1633870770633118 -0.11792519745576525 0.5935900662322657 -0.19183878287467332 0.5935900662322657 -0.19183878287467332 0.190308149107303 -0.06150453953451347
1999000000.0 0.16275976736788766 -0.11817378717469111 0.5926511597273035 -0.192461118481489 0.5926511597273035 -0.192461118481489 0.19022100896754654 -0.06177351979099607
2008000000.0 0.16213288671134107 -0.11842015835845128 0.5917124310187037 -0.19308142787829008 0.5917124310187037 -0.19308142787829008 0.19013348865311666 -0.062042376587258155
2017000000.0 0.16150644058185604 -0.11866431621656483 0.5907738827676455 -0.1936997135963746 0.5907738827676455 -0.1936997135963746 0.190045588338931 -0.062311109385964014
